Freq.	V(vo)
Step Information: Run=1  (Run: 1/10)
1.00000000000000e+001	(6.14808198741358e+000dB,-5.84933419918202e-001°)
1.00230523807790e+001	(6.14808358186976e+000dB,-5.86281985201452e-001°)
1.00461579027840e+001	(6.14808518368465e+000dB,-5.87633660319646e-001°)
1.00693166885180e+001	(6.14808679289218e+000dB,-5.88988452449118e-001°)
1.00925288607668e+001	(6.14808840952647e+000dB,-5.90346368782798e-001°)
1.01157945425990e+001	(6.14809003362181e+000dB,-5.91707416530246e-001°)
1.01391138573668e+001	(6.14809166521261e+000dB,-5.93071602917695e-001°)
1.01624869287070e+001	(6.14809330433346e+000dB,-5.94438935188090e-001°)
1.01859138805412e+001	(6.14809495101911e+000dB,-5.95809420601123e-001°)
1.02093948370768e+001	(6.14809660530446e+000dB,-5.97183066433278e-001°)
1.02329299228075e+001	(6.14809826722461e+000dB,-5.98559879977862e-001°)
1.02565192625141e+001	(6.14809993681475e+000dB,-5.99939868545052e-001°)
1.02801629812647e+001	(6.14810161411030e+000dB,-6.01323039461934e-001°)
1.03038612044162e+001	(6.14810329914680e+000dB,-6.02709400072533e-001°)
1.03276140576140e+001	(6.14810499195999e+000dB,-6.04098957737864e-001°)
1.03514216667934e+001	(6.14810669258573e+000dB,-6.05491719835962e-001°)
1.03752841581801e+001	(6.14810840106009e+000dB,-6.06887693761929e-001°)
1.03992016582906e+001	(6.14811011741929e+000dB,-6.08286886927972e-001°)
1.04231742939330e+001	(6.14811184169970e+000dB,-6.09689306763438e-001°)
1.04472021922080e+001	(6.14811357393788e+000dB,-6.11094960714860e-001°)
1.04712854805090e+001	(6.14811531417055e+000dB,-6.12503856245994e-001°)
1.04954242865232e+001	(6.14811706243460e+000dB,-6.13916000837858e-001°)
1.05196187382322e+001	(6.14811881876709e+000dB,-6.15331401988779e-001°)
1.05438689639126e+001	(6.14812058320524e+000dB,-6.16750067214419e-001°)
1.05681750921366e+001	(6.14812235578648e+000dB,-6.18172004047832e-001°)
1.05925372517729e+001	(6.14812413654836e+000dB,-6.19597220039496e-001°)
1.06169555719872e+001	(6.14812592552865e+000dB,-6.21025722757352e-001°)
1.06414301822431e+001	(6.14812772276525e+000dB,-6.22457519786849e-001°)
1.06659612123026e+001	(6.14812952829628e+000dB,-6.23892618730982e-001°)
1.06905487922266e+001	(6.14813134215999e+000dB,-6.25331027210334e-001°)
1.07151930523761e+001	(6.14813316439485e+000dB,-6.26772752863120e-001°)
1.07398941234124e+001	(6.14813499503950e+000dB,-6.28217803345219e-001°)
1.07646521362983e+001	(6.14813683413270e+000dB,-6.29666186330226e-001°)
1.07894672222983e+001	(6.14813868171348e+000dB,-6.31117909509485e-001°)
1.08143395129794e+001	(6.14814053782098e+000dB,-6.32572980592139e-001°)
1.08392691402120e+001	(6.14814240249455e+000dB,-6.34031407305157e-001°)
1.08642562361706e+001	(6.14814427577372e+000dB,-6.35493197393393e-001°)
1.08893009333343e+001	(6.14814615769821e+000dB,-6.36958358619617e-001°)
1.09144033644875e+001	(6.14814804830789e+000dB,-6.38426898764559e-001°)
1.09395636627209e+001	(6.14814994764285e+000dB,-6.39898825626949e-001°)
1.09647819614318e+001	(6.14815185574335e+000dB,-6.41374147023564e-001°)
1.09900583943252e+001	(6.14815377264983e+000dB,-6.42852870789261e-001°)
1.10153930954141e+001	(6.14815569840294e+000dB,-6.44335004777036e-001°)
1.10407861990207e+001	(6.14815763304348e+000dB,-6.45820556858046e-001°)
1.10662378397766e+001	(6.14815957661247e+000dB,-6.47309534921665e-001°)
1.10917481526240e+001	(6.14816152915112e+000dB,-6.48801946875518e-001°)
1.11173172728159e+001	(6.14816349070079e+000dB,-6.50297800645533e-001°)
1.11429453359173e+001	(6.14816546130309e+000dB,-6.51797104175975e-001°)
1.11686324778056e+001	(6.14816744099977e+000dB,-6.53299865429495e-001°)
1.11943788346715e+001	(6.14816942983280e+000dB,-6.54806092387169e-001°)
1.12201845430196e+001	(6.14817142784434e+000dB,-6.56315793048537e-001°)
1.12460497396692e+001	(6.14817343507675e+000dB,-6.57828975431657e-001°)
1.12719745617551e+001	(6.14817545157256e+000dB,-6.59345647573143e-001°)
1.12979591467279e+001	(6.14817747737451e+000dB,-6.60865817528203e-001°)
1.13240036323555e+001	(6.14817951252556e+000dB,-6.62389493370690e-001°)
1.13501081567231e+001	(6.14818155706886e+000dB,-6.63916683193140e-001°)
1.13762728582343e+001	(6.14818361104771e+000dB,-6.65447395106819e-001°)
1.14024978756117e+001	(6.14818567450567e+000dB,-6.66981637241768e-001°)
1.14287833478977e+001	(6.14818774748647e+000dB,-6.68519417746840e-001°)
1.14551294144553e+001	(6.14818983003406e+000dB,-6.70060744789751e-001°)
1.14815362149688e+001	(6.14819192219258e+000dB,-6.71605626557122e-001°)
1.15080038894443e+001	(6.14819402400637e+000dB,-6.73154071254521e-001°)
1.15345325782109e+001	(6.14819613551998e+000dB,-6.74706087106507e-001°)
1.15611224219210e+001	(6.14819825677818e+000dB,-6.76261682356679e-001°)
1.15877735615512e+001	(6.14820038782592e+000dB,-6.77820865267716e-001°)
1.16144861384034e+001	(6.14820252870838e+000dB,-6.79383644121423e-001°)
1.16412602941049e+001	(6.14820467947094e+000dB,-6.80950027218776e-001°)
1.16680961706096e+001	(6.14820684015917e+000dB,-6.82520022879965e-001°)
1.16949939101987e+001	(6.14820901081889e+000dB,-6.84093639444442e-001°)
1.17219536554813e+001	(6.14821119149610e+000dB,-6.85670885270961e-001°)
1.17489755493953e+001	(6.14821338223702e+000dB,-6.87251768737628e-001°)
1.17760597352080e+001	(6.14821558308808e+000dB,-6.88836298241948e-001°)
1.18032063565173e+001	(6.14821779409595e+000dB,-6.90424482200858e-001°)
1.18304155572516e+001	(6.14822001530746e+000dB,-6.92016329050790e-001°)
1.18576874816716e+001	(6.14822224676973e+000dB,-6.93611847247699e-001°)
1.18850222743701e+001	(6.14822448853004e+000dB,-6.95211045267123e-001°)
1.19124200802737e+001	(6.14822674063589e+000dB,-6.96813931604221e-001°)
1.19398810446427e+001	(6.14822900313504e+000dB,-6.98420514773824e-001°)
1.19674053130724e+001	(6.14823127607543e+000dB,-7.00030803310469e-001°)
1.19949930314937e+001	(6.14823355950524e+000dB,-7.01644805768461e-001°)
1.20226443461741e+001	(6.14823585347287e+000dB,-7.03262530721908e-001°)
1.20503594037179e+001	(6.14823815802694e+000dB,-7.04883986764775e-001°)
1.20781383510678e+001	(6.14824047321631e+000dB,-7.06509182510921e-001°)
1.21059813355048e+001	(6.14824279909002e+000dB,-7.08138126594156e-001°)
1.21338885046497e+001	(6.14824513569739e+000dB,-7.09770827668275e-001°)
1.21618600064636e+001	(6.14824748308795e+000dB,-7.11407294407124e-001°)
1.21898959892486e+001	(6.14824984131143e+000dB,-7.13047535504623e-001°)
1.22179966016487e+001	(6.14825221041784e+000dB,-7.14691559674832e-001°)
1.22461619926504e+001	(6.14825459045737e+000dB,-7.16339375651988e-001°)
1.22743923115840e+001	(6.14825698148048e+000dB,-7.17990992190555e-001°)
1.23026877081238e+001	(6.14825938353785e+000dB,-7.19646418065272e-001°)
1.23310483322890e+001	(6.14826179668037e+000dB,-7.21305662071202e-001°)
1.23594743344450e+001	(6.14826422095922e+000dB,-7.22968733023774e-001°)
1.23879658653036e+001	(6.14826665642575e+000dB,-7.24635639758834e-001°)
1.24165230759240e+001	(6.14826910313159e+000dB,-7.26306391132696e-001°)
1.24451461177138e+001	(6.14827156112861e+000dB,-7.27980996022180e-001°)
1.24738351424294e+001	(6.14827403046889e+000dB,-7.29659463324677e-001°)
1.25025903021771e+001	(6.14827651120476e+000dB,-7.31341801958171e-001°)
1.25314117494141e+001	(6.14827900338882e+000dB,-7.33028020861318e-001°)
1.25602996369487e+001	(6.14828150707387e+000dB,-7.34718128993470e-001°)
1.25892541179416e+001	(6.14828402231300e+000dB,-7.36412135334734e-001°)
1.26182753459066e+001	(6.14828654915949e+000dB,-7.38110048886018e-001°)
1.26473634747114e+001	(6.14828908766692e+000dB,-7.39811878669087e-001°)
1.26765186585784e+001	(6.14829163788907e+000dB,-7.41517633726595e-001°)
1.27057410520853e+001	(6.14829419988000e+000dB,-7.43227323122154e-001°)
1.27350308101665e+001	(6.14829677369400e+000dB,-7.44940955940365e-001°)
1.27643880881134e+001	(6.14829935938563e+000dB,-7.46658541286879e-001°)
1.27938130415752e+001	(6.14830195700970e+000dB,-7.48380088288445e-001°)
1.28233058265601e+001	(6.14830456662124e+000dB,-7.50105606092952e-001°)
1.28528665994361e+001	(6.14830718827557e+000dB,-7.51835103869487e-001°)
1.28824955169313e+001	(6.14830982202825e+000dB,-7.53568590808378e-001°)
1.29121927361353e+001	(6.14831246793511e+000dB,-7.55306076121252e-001°)
1.29419584144998e+001	(6.14831512605220e+000dB,-7.57047569041071e-001°)
1.29717927098395e+001	(6.14831779643589e+000dB,-7.58793078822198e-001°)
1.30016957803328e+001	(6.14832047914275e+000dB,-7.60542614740438e-001°)
1.30316677845229e+001	(6.14832317422963e+000dB,-7.62296186093083e-001°)
1.30617088813183e+001	(6.14832588175368e+000dB,-7.64053802198981e-001°)
1.30918192299940e+001	(6.14832860177225e+000dB,-7.65815472398566e-001°)
1.31219989901920e+001	(6.14833133434300e+000dB,-7.67581206053918e-001°)
1.31522483219223e+001	(6.14833407952385e+000dB,-7.69351012548812e-001°)
1.31825673855640e+001	(6.14833683737295e+000dB,-7.71124901288776e-001°)
1.32129563418657e+001	(6.14833960794877e+000dB,-7.72902881701129e-001°)
1.32434153519466e+001	(6.14834239131002e+000dB,-7.74684963235039e-001°)
1.32739445772973e+001	(6.14834518751569e+000dB,-7.76471155361577e-001°)
1.33045441797808e+001	(6.14834799662505e+000dB,-7.78261467573760e-001°)
1.33352143216332e+001	(6.14835081869761e+000dB,-7.80055909386614e-001°)
1.33659551654643e+001	(6.14835365379319e+000dB,-7.81854490337213e-001°)
1.33967668742593e+001	(6.14835650197188e+000dB,-7.83657219984740e-001°)
1.34276496113785e+001	(6.14835936329402e+000dB,-7.85464107910533e-001°)
1.34586035405594e+001	(6.14836223782026e+000dB,-7.87275163718142e-001°)
1.34896288259164e+001	(6.14836512561153e+000dB,-7.89090397033377e-001°)
1.35207256319427e+001	(6.14836802672900e+000dB,-7.90909817504361e-001°)
1.35518941235103e+001	(6.14837094123418e+000dB,-7.92733434801582e-001°)
1.35831344658714e+001	(6.14837386918883e+000dB,-7.94561258617949e-001°)
1.36144468246594e+001	(6.14837681065498e+000dB,-7.96393298668840e-001°)
1.36458313658891e+001	(6.14837976569498e+000dB,-7.98229564692159e-001°)
1.36772882559584e+001	(6.14838273437145e+000dB,-8.00070066448382e-001°)
1.37088176616484e+001	(6.14838571674731e+000dB,-8.01914813720616e-001°)
1.37404197501251e+001	(6.14838871288576e+000dB,-8.03763816314650e-001°)
1.37720946889394e+001	(6.14839172285028e+000dB,-8.05617084059013e-001°)
1.38038426460287e+001	(6.14839474670466e+000dB,-8.07474626805015e-001°)
1.38356637897177e+001	(6.14839778451299e+000dB,-8.09336454426812e-001°)
1.38675582887188e+001	(6.14840083633964e+000dB,-8.11202576821458e-001°)
1.38995263121334e+001	(6.14840390224929e+000dB,-8.13073003908954e-001°)
1.39315680294529e+001	(6.14840698230691e+000dB,-8.14947745632305e-001°)
1.39636836105593e+001	(6.14841007657774e+000dB,-8.16826811957572e-001°)
1.39958732257261e+001	(6.14841318512740e+000dB,-8.18710212873928e-001°)
1.40281370456195e+001	(6.14841630802173e+000dB,-8.20597958393714e-001°)
1.40604752412990e+001	(6.14841944532692e+000dB,-8.22490058552485e-001°)
1.40928879842186e+001	(6.14842259710945e+000dB,-8.24386523409080e-001°)
1.41253754462274e+001	(6.14842576343610e+000dB,-8.26287363045659e-001°)
1.41579377995707e+001	(6.14842894437398e+000dB,-8.28192587567769e-001°)
1.41905752168908e+001	(6.14843213999050e+000dB,-8.30102207104393e-001°)
1.42232878712281e+001	(6.14843535035338e+000dB,-8.32016231808013e-001°)
1.42560759360218e+001	(6.14843857553062e+000dB,-8.33934671854657e-001°)
1.42889395851109e+001	(6.14844181559059e+000dB,-8.35857537443955e-001°)
1.43218789927353e+001	(6.14844507060195e+000dB,-8.37784838799200e-001°)
1.43548943335364e+001	(6.14844834063365e+000dB,-8.39716586167399e-001°)
1.43879857825583e+001	(6.14845162575501e+000dB,-8.41652789819331e-001°)
1.44211535152486e+001	(6.14845492603563e+000dB,-8.43593460049600e-001°)
1.44543977074592e+001	(6.14845824154544e+000dB,-8.45538607176693e-001°)
1.44877185354475e+001	(6.14846157235470e+000dB,-8.47488241543038e-001°)
1.45211161758773e+001	(6.14846491853400e+000dB,-8.49442373515055e-001°)
1.45545908058195e+001	(6.14846828015423e+000dB,-8.51401013483217e-001°)
1.45881426027534e+001	(6.14847165728662e+000dB,-8.53364171862104e-001°)
1.46217717445671e+001	(6.14847505000276e+000dB,-8.55331859090464e-001°)
1.46554784095590e+001	(6.14847845837450e+000dB,-8.57304085631262e-001°)
1.46892627764385e+001	(6.14848188247408e+000dB,-8.59280861971740e-001°)
1.47231250243271e+001	(6.14848532237407e+000dB,-8.61262198623485e-001°)
1.47570653327588e+001	(6.14848877814734e+000dB,-8.63248106122465e-001°)
1.47910838816819e+001	(6.14849224986711e+000dB,-8.65238595029105e-001°)
1.48251808514594e+001	(6.14849573760695e+000dB,-8.67233675928336e-001°)
1.48593564228699e+001	(6.14849924144077e+000dB,-8.69233359429653e-001°)
1.48936107771090e+001	(6.14850276144282e+000dB,-8.71237656167170e-001°)
1.49279440957898e+001	(6.14850629768767e+000dB,-8.73246576799694e-001°)
1.49623565609442e+001	(6.14850985025025e+000dB,-8.75260132010757e-001°)
1.49968483550236e+001	(6.14851341920584e+000dB,-8.77278332508696e-001°)
1.50314196609001e+001	(6.14851700463005e+000dB,-8.79301189026702e-001°)
1.50660706618673e+001	(6.14852060659886e+000dB,-8.81328712322877e-001°)
1.51008015416413e+001	(6.14852422518860e+000dB,-8.83360913180297e-001°)
1.51356124843619e+001	(6.14852786047592e+000dB,-8.85397802407069e-001°)
1.51705036745932e+001	(6.14853151253786e+000dB,-8.87439390836395e-001°)
1.52054752973248e+001	(6.14853518145180e+000dB,-8.89485689326616e-001°)
1.52405275379728e+001	(6.14853886729548e+000dB,-8.91536708761290e-001°)
1.52756605823806e+001	(6.14854257014699e+000dB,-8.93592460049240e-001°)
1.53108746168202e+001	(6.14854629008478e+000dB,-8.95652954124613e-001°)
1.53461698279928e+001	(6.14855002718768e+000dB,-8.97718201946951e-001°)
1.53815464030302e+001	(6.14855378153487e+000dB,-8.99788214501230e-001°)
1.54170045294954e+001	(6.14855755320589e+000dB,-9.01863002797944e-001°)
1.54525443953840e+001	(6.14856134228066e+000dB,-9.03942577873149e-001°)
1.54881661891247e+001	(6.14856514883944e+000dB,-9.06026950788526e-001°)
1.55238700995807e+001	(6.14856897296291e+000dB,-9.08116132631448e-001°)
1.55596563160506e+001	(6.14857281473208e+000dB,-9.10210134515027e-001°)
1.55955250282694e+001	(6.14857667422835e+000dB,-9.12308967578196e-001°)
1.56314764264094e+001	(6.14858055153348e+000dB,-9.14412642985745e-001°)
1.56675107010813e+001	(6.14858444672965e+000dB,-9.16521171928401e-001°)
1.57036280433354e+001	(6.14858835989934e+000dB,-9.18634565622881e-001°)
1.57398286446620e+001	(6.14859229112549e+000dB,-9.20752835311952e-001°)
1.57761126969933e+001	(6.14859624049139e+000dB,-9.22875992264497e-001°)
1.58124803927037e+001	(6.14860020808070e+000dB,-9.25004047775576e-001°)
1.58489319246110e+001	(6.14860419397749e+000dB,-9.27137013166483e-001°)
1.58854674859776e+001	(6.14860819826620e+000dB,-9.29274899784811e-001°)
1.59220872705115e+001	(6.14861222103167e+000dB,-9.31417719004517e-001°)
1.59587914723672e+001	(6.14861626235913e+000dB,-9.33565482225976e-001°)
1.59955802861465e+001	(6.14862032233420e+000dB,-9.35718200876055e-001°)
1.60324539069002e+001	(6.14862440104289e+000dB,-9.37875886408166e-001°)
1.60694125301286e+001	(6.14862849857162e+000dB,-9.40038550302331e-001°)
1.61064563517825e+001	(6.14863261500718e+000dB,-9.42206204065246e-001°)
1.61435855682647e+001	(6.14863675043681e+000dB,-9.44378859230342e-001°)
1.61808003764305e+001	(6.14864090494811e+000dB,-9.46556527357852e-001°)
1.62181009735891e+001	(6.14864507862907e+000dB,-9.48739220034868e-001°)
1.62554875575047e+001	(6.14864927156815e+000dB,-9.50926948875414e-001°)
1.62929603263970e+001	(6.14865348385416e+000dB,-9.53119725520497e-001°)
1.63305194789432e+001	(6.14865771557634e+000dB,-9.55317561638182e-001°)
1.63681652142779e+001	(6.14866196682434e+000dB,-9.57520468923650e-001°)
1.64058977319952e+001	(6.14866623768823e+000dB,-9.59728459099261e-001°)
1.64437172321491e+001	(6.14867052825847e+000dB,-9.61941543914626e-001°)
1.64816239152549e+001	(6.14867483862598e+000dB,-9.64159735146655e-001°)
1.65196179822900e+001	(6.14867916888205e+000dB,-9.66383044599650e-001°)
1.65576996346951e+001	(6.14868351911844e+000dB,-9.68611484105331e-001°)
1.65958690743754e+001	(6.14868788942728e+000dB,-9.70845065522940e-001°)
1.66341265037015e+001	(6.14869227990118e+000dB,-9.73083800739280e-001°)
1.66724721255104e+001	(6.14869669063313e+000dB,-9.75327701668782e-001°)
1.67109061431069e+001	(6.14870112171657e+000dB,-9.77576780253588e-001°)
1.67494287602642e+001	(6.14870557324538e+000dB,-9.79831048463597e-001°)
1.67880401812254e+001	(6.14871004531386e+000dB,-9.82090518296543e-001°)
1.68267406107045e+001	(6.14871453801672e+000dB,-9.84355201778049e-001°)
1.68655302538872e+001	(6.14871905144916e+000dB,-9.86625110961710e-001°)
1.69044093164324e+001	(6.14872358570679e+000dB,-9.88900257929139e-001°)
1.69433780044731e+001	(6.14872814088565e+000dB,-9.91180654790054e-001°)
1.69824365246172e+001	(6.14873271708224e+000dB,-9.93466313682329e-001°)
1.70215850839493e+001	(6.14873731439351e+000dB,-9.95757246772063e-001°)
1.70608238900310e+001	(6.14874193291682e+000dB,-9.98053466253651e-001°)
1.71001531509027e+001	(6.14874657275003e+000dB,-1.00035498434985e+000°)
1.71395730750841e+001	(6.14875123399141e+000dB,-1.00266181331185e+000°)
1.71790838715757e+001	(6.14875591673970e+000dB,-1.00497396541933e+000°)
1.72186857498599e+001	(6.14876062109411e+000dB,-1.00729145298053e+000°)
1.72583789199018e+001	(6.14876534715427e+000dB,-1.00961428833234e+000°)
1.72981635921508e+001	(6.14877009502029e+000dB,-1.01194248384032e+000°)
1.73380399775412e+001	(6.14877486479276e+000dB,-1.01427605189881e+000°)
1.73780082874935e+001	(6.14877965657271e+000dB,-1.01661500493099e+000°)
1.74180687339159e+001	(6.14878447046162e+000dB,-1.01895935538895e+000°)
1.74582215292048e+001	(6.14878930656149e+000dB,-1.02130911575372e+000°)
1.74984668862464e+001	(6.14879416497473e+000dB,-1.02366429853540e+000°)
1.75388050184174e+001	(6.14879904580427e+000dB,-1.02602491627319e+000°)
1.75792361395867e+001	(6.14880394915348e+000dB,-1.02839098153547e+000°)
1.76197604641161e+001	(6.14880887512622e+000dB,-1.03076250691985e+000°)
1.76603782068614e+001	(6.14881382382685e+000dB,-1.03313950505329e+000°)
1.77010895831740e+001	(6.14881879536017e+000dB,-1.03552198859209e+000°)
1.77418948089014e+001	(6.14882378983150e+000dB,-1.03790997022206e+000°)
1.77827941003890e+001	(6.14882880734661e+000dB,-1.04030346265848e+000°)
1.78237876744807e+001	(6.14883384801179e+000dB,-1.04270247864628e+000°)
1.78648757485203e+001	(6.14883891193379e+000dB,-1.04510703096000e+000°)
1.79060585403527e+001	(6.14884399921989e+000dB,-1.04751713240397e+000°)
1.79473362683250e+001	(6.14884910997782e+000dB,-1.04993279581228e+000°)
1.79887091512877e+001	(6.14885424431585e+000dB,-1.05235403404893e+000°)
1.80301774085955e+001	(6.14885940234270e+000dB,-1.05478086000784e+000°)
1.80717412601090e+001	(6.14886458416764e+000dB,-1.05721328661298e+000°)
1.81134009261958e+001	(6.14886978990042e+000dB,-1.05965132681839e+000°)
1.81551566277311e+001	(6.14887501965130e+000dB,-1.06209499360828e+000°)
1.81970085860996e+001	(6.14888027353102e+000dB,-1.06454429999708e+000°)
1.82389570231961e+001	(6.14888555165089e+000dB,-1.06699925902955e+000°)
1.82810021614272e+001	(6.14889085412269e+000dB,-1.06945988378080e+000°)
1.83231442237119e+001	(6.14889618105870e+000dB,-1.07192618735640e+000°)
1.83653834334832e+001	(6.14890153257176e+000dB,-1.07439818289246e+000°)
1.84077200146893e+001	(6.14890690877522e+000dB,-1.07687588355565e+000°)
1.84501541917945e+001	(6.14891230978291e+000dB,-1.07935930254334e+000°)
1.84926861897805e+001	(6.14891773570926e+000dB,-1.08184845308361e+000°)
1.85353162341479e+001	(6.14892318666917e+000dB,-1.08434334843538e+000°)
1.85780445509167e+001	(6.14892866277806e+000dB,-1.08684400188843e+000°)
1.86208713666284e+001	(6.14893416415193e+000dB,-1.08935042676352e+000°)
1.86637969083464e+001	(6.14893969090729e+000dB,-1.09186263641244e+000°)
1.87068214036578e+001	(6.14894524316118e+000dB,-1.09438064421808e+000°)
1.87499450806739e+001	(6.14895082103120e+000dB,-1.09690446359451e+000°)
1.87931681680324e+001	(6.14895642463546e+000dB,-1.09943410798706e+000°)
1.88364908948977e+001	(6.14896205409264e+000dB,-1.10196959087238e+000°)
1.88799134909627e+001	(6.14896770952196e+000dB,-1.10451092575855e+000°)
